Time [s],Channel 6,Channel 7
-0.010000000,0,0
0.000000000,0,1
0.000074688,1,0
0.000643750,0,0
0.019120438,0,1
0.019194875,1,0
0.019757375,0,0
0.035204938,0,1
0.035279375,1,0
0.035841563,0,0
0.051212875,0,1
0.051287313,1,0
0.051849563,0,0
0.067255688,0,1
0.067330125,1,0
0.067892250,0,0
0.083204250,0,1
0.083278688,1,0
0.083840875,0,0
0.099220938,0,1
0.099295375,1,0
0.099857375,0,0
0.115496875,0,1
0.115571313,1,0
0.116133500,0,0
0.131357250,0,1
0.131431688,1,0
0.131993688,0,0
0.147219125,0,1
0.147293500,1,0
0.147855688,0,0
0.163390938,0,1
0.163465375,1,0
0.164027750,0,0
0.179217813,0,1
0.179292250,1,0
0.179854375,0,0
0.195217063,0,1
0.195291500,1,0
0.195853625,0,0
0.211233813,0,1
0.211308188,1,0
0.211870125,0,0
0.227596688,0,1
0.227671125,1,0
0.228233313,0,0
0.243215250,0,1
0.243289688,1,0
0.243851813,0,0
0.259197188,0,1
0.259271563,1,0
0.259833563,0,0
0.275525125,0,1
0.275599563,1,0
0.276161563,0,0
0.291213313,0,1
0.291287750,1,0
0.291849688,0,0
0.307221188,0,1
0.307295625,1,0
0.307857688,0,0
0.323644813,0,1
0.323719250,1,0
0.324281313,0,0
0.339289375,0,1
0.339363813,1,0
0.339925938,0,0
0.355228125,0,1
0.355302625,1,0
0.355864750,0,0
0.371262188,0,1
0.371336625,1,0
0.371898563,0,0
0.387313625,0,1
0.387388063,1,0
0.387950000,0,0
0.403260938,0,1
0.403335375,1,0
0.403897438,0,0
0.419373125,0,1
0.419447563,1,0
0.420009625,0,0
0.435389875,0,1
0.435464313,1,0
0.436026313,0,0
0.451250313,0,1
0.451324688,1,0
0.451886750,0,0
0.467223625,0,1
0.467298063,1,0
0.467860063,0,0
0.483474750,0,1
0.483549188,1,0
0.484111125,0,0
0.500097813,0,1
0.500172250,1,0
0.500734375,0,0
0.515412625,0,1
0.515487063,1,0
0.516049188,0,0
0.531368625,0,1
0.531443063,1,0
0.532005125,0,0
0.547394063,0,1
0.547468438,1,0
0.548030500,0,0
0.563211125,0,1
0.563285500,1,0
0.563847688,0,0
0.579201750,0,1
0.579276188,1,0
0.579838125,0,0
0.595357375,0,1
0.595431813,1,0
0.595993688,0,0
0.611226563,0,1
0.611301000,1,0
0.611863063,0,0
0.627295313,0,1
0.627369688,1,0
0.627931813,0,0
0.643442313,0,1
0.643516750,1,0
0.644078688,0,0
0.659242125,0,1
0.659316563,1,0
0.659878813,0,0
0.675319563,0,1
0.675394000,1,0
0.675956188,0,0
0.691266688,0,1
0.691341125,1,0
0.691903313,0,0
0.707379063,0,1
0.707453563,1,0
0.708015563,0,0
0.723317563,0,1
0.723392000,1,0
0.723954000,0,0
0.739240000,0,1
0.739314375,1,0
0.739876563,0,0
0.755515875,0,1
0.755590313,1,0
0.756152250,0,0
0.771428500,0,1
0.771503000,1,0
0.772065000,0,0
0.787307563,0,1
0.787382000,1,0
0.787944000,0,0
0.803254750,0,1
0.803329188,1,0
0.803891188,0,0
0.819193438,0,1
0.819267875,1,0
0.819830000,0,0
0.835305625,0,1
0.835380063,1,0
0.835942188,0,0
0.851313688,0,1
0.851388063,1,0
0.851950188,0,0
0.867347750,0,1
0.867422187,1,0
0.867984188,0,0
0.883303688,0,1
0.883378125,1,0
0.883940188,0,0
0.899970375,0,1
0.900044813,1,0
0.900606938,0,0
0.915224375,0,1
0.915298813,1,0
0.915860750,0,0
0.931423375,0,1
0.931497750,1,1
0.931497813,1,0
0.932060063,0,0
0.947353313,0,1
0.947427750,1,0
0.947989688,0,0
0.963248437,0,1
0.963322875,1,0
0.963884875,0,0
0.979230438,0,1
0.979304875,1,0
0.979866812,0,0
0.995351375,0,1
0.995425813,1,0
0.995987875,0,0
1.011342000,0,1
1.011416438,1,0
1.011978562,0,0
1.027228438,0,1
1.027302875,1,0
1.027864938,0,0
1.043210563,0,1
1.043285000,1,0
1.043847000,0,0
1.059418188,0,1
1.059492563,1,0
1.060054625,0,0
1.075426313,0,1
1.075500688,1,0
1.076062750,0,0
1.091330188,0,1
1.091404625,1,0
1.091966813,0,0
1.107468375,0,1
1.107542813,1,0
1.108104813,0,0
1.123302813,0,1
1.123377250,1,0
1.123939250,0,0
1.139432500,0,1
1.139506938,1,0
1.140069125,0,0
1.155370937,0,1
1.155445375,1,0
1.156007375,0,0
1.171361625,0,1
1.171436063,1,0
1.171998000,0,0
1.187335000,0,1
1.187409375,1,0
1.187971625,0,0
1.203265000,0,1
1.203339438,1,0
1.203901500,0,0
1.219568125,0,1
1.219642500,1,0
1.220204688,0,0
1.235359000,0,1
1.235433438,1,0
1.235995563,0,0
1.251262938,0,1
1.251337375,1,0
1.251899438,0,0
1.267392625,0,1
1.267467063,1,0
1.268029125,0,0
1.283400563,0,1
1.283475000,1,0
1.284036875,0,0
1.299217688,0,1
1.299292125,1,0
1.299854063,0,0
1.315399375,0,1
1.315473813,1,0
1.316035875,0,0
1.331294438,0,1
1.331368875,1,0
1.331931000,0,0
1.347250438,0,1
1.347324875,1,0
1.347886875,0,0
1.363267188,0,1
1.363341563,1,0
1.363903625,0,0
1.379362125,0,1
1.379436563,1,0
1.379998563,0,0
1.395300688,0,1
1.395375125,1,0
1.395937000,0,0
1.411742750,0,1
1.411817188,1,0
1.412379188,0,0
1.427325375,0,1
1.427399813,1,0
1.427961750,0,0
1.443385563,0,1
1.443460000,1,0
1.444022000,0,0
1.459384813,0,1
1.459459250,1,0
1.460021188,0,0
1.475419000,0,1
1.475493438,1,0
1.476055563,0,0
1.491583250,0,1
1.491657625,1,0
1.492219688,0,0
1.507643375,0,1
1.507717813,1,0
1.508279750,0,0
1.523573313,0,1
1.523647750,1,0
1.524210125,0,0
1.539494500,0,1
1.539568938,1,0
1.540131125,0,0
1.555234750,0,1
1.555309188,1,0
1.555871313,0,0
1.571216688,0,1
1.571291125,1,0
1.571853313,0,0
1.587415688,0,1
1.587490125,1,0
1.588052438,0,0
1.603302313,0,1
1.603376750,1,0
1.603938750,0,0
1.619214812,0,1
1.619289188,1,0
1.619851188,0,0
1.635257625,0,1
1.635332063,1,0
1.635894000,0,0
1.651317750,0,1
1.651392125,1,0
1.651954188,0,0
1.667377875,0,1
1.667452313,1,0
1.668014375,0,0
1.683290313,0,1
1.683364750,1,0
1.683927000,0,0
1.699498063,0,1
1.699572500,1,0
1.700134625,0,0
1.715306375,0,1
1.715380813,1,0
1.715942750,0,0
1.731505375,0,1
1.731579813,1,0
1.732141813,0,0
1.747478813,0,1
1.747553250,1,0
1.748115313,0,0
1.763737375,0,1
1.763811813,1,0
1.764373750,0,0
1.779538188,0,1
1.779612625,1,0
1.780174688,0,0
1.795641875,0,1
1.795716313,1,0
1.796278250,0,0
1.811346000,0,1
1.811420375,1,0
1.811982438,0,0
1.827241313,0,1
1.827315750,1,0
1.827877813,0,0
1.844315688,0,1
1.844390125,1,0
1.844952062,0,0
1.859760750,0,1
1.859835250,1,0
1.860397250,0,0
1.875412938,0,1
1.875487375,1,0
1.876049437,0,0
1.891238625,0,1
1.891313063,1,0
1.891875125,0,0
1.907420375,0,1
1.907494813,1,0
1.908056813,0,0
1.923636813,0,1
1.923711250,1,0
1.924273313,0,0
1.939280063,0,1
1.939354500,1,0
1.939916563,0,0
1.955314375,0,1
1.955388813,1,0
1.955951063,0,0
1.971330875,0,1
1.971405313,1,0
1.971967438,0,0
1.987260938,0,1
1.987335375,1,0
1.987897625,0,0
2.003355625,0,1
2.003430063,1,0
2.003992250,0,0
2.019294313,0,1
2.019368750,1,0
2.019930813,0,0
2.035251563,0,1
2.035326000,1,0
2.035887938,0,0
2.051293125,0,1
2.051367563,1,0
2.051929563,0,0
2.067604938,0,1
2.067679375,1,0
2.068241375,0,0
2.083317813,0,1
2.083392250,1,0
2.083954375,0,0
2.099257625,0,1
2.099332063,1,0
2.099894125,0,0
2.115533563,0,1
2.115608000,1,0
2.116170000,0,0
2.131351813,0,1
2.131426250,1,0
2.131988250,0,0
2.147325250,0,1
2.147399688,1,0
2.147961750,0,0
2.163904813,0,1
2.163979250,1,0
2.164541313,0,0
2.179591813,0,1
2.179666250,1,0
2.180228313,0,0
2.195756063,0,1
2.195830500,1,0
2.196392438,0,0
2.211244500,0,1
2.211318938,1,0
2.211881000,0,0
2.227494313,0,1
2.227568750,1,0
2.228130688,0,0
2.243260625,0,1
2.243335063,1,0
2.243897125,0,0
2.259242563,0,1
2.259317000,1,0
2.259879000,0,0
2.275285313,0,1
2.275359688,1,0
2.275921813,0,0
2.291432250,0,1
2.291506688,1,0
2.292068625,0,0
2.307353500,0,1
2.307427875,1,0
2.307989875,0,0
2.323535063,0,1
2.323609500,1,0
2.324171500,0,0
2.339551875,0,1
2.339626313,1,0
2.340188438,0,0
2.355429750,0,1
2.355504188,1,0
2.356066188,0,0
2.371628687,0,1
2.371703125,1,0
2.372265188,0,0
2.387922063,0,1
2.387996438,1,1
2.387996500,1,0
2.388558500,0,0
2.403341000,0,1
2.403415438,1,0
2.403977688,0,0
2.419409813,0,1
2.419484250,1,0
2.420046375,0,0
2.435513313,0,1
2.435587750,1,0
2.436149813,0,0
2.451660313,0,1
2.451734750,1,0
2.452296875,0,0
2.467260313,0,1
2.467334750,1,0
2.467896813,0,0
2.483381313,0,1
2.483455750,1,0
2.484017938,0,0
2.499285125,0,1
2.499359563,1,0
2.499921688,0,0
2.515284500,0,1
2.515358938,1,0
2.515921063,0,0
2.531388063,0,1
2.531462500,1,0
2.532024750,0,0
2.547474188,0,1
2.547548625,1,0
2.548110625,0,0
2.563317250,0,1
2.563391688,1,0
2.563953750,0,0
2.579360063,0,1
2.579434500,1,0
2.579996500,0,0
2.595489500,0,1
2.595563938,1,0
2.596125938,0,0
2.611315375,0,1
2.611389813,1,0
2.611951875,0,0
2.627236563,0,1
2.627311000,1,0
2.627873063,0,0
2.643531000,0,1
2.643605438,1,0
2.644167563,0,0
2.659278750,0,1
2.659353188,1,0
2.659915125,0,0
2.675390938,0,1
2.675465375,1,0
2.676027625,0,0
2.691416250,0,1
2.691490688,1,0
2.692052813,0,0
2.707589313,0,1
2.707663750,1,0
2.708225813,0,0
2.723294750,0,1
2.723369187,1,0
2.723931250,0,0
2.739371000,0,1
2.739445438,1,0
2.740007250,0,0
2.755405000,0,1
2.755479438,1,0
2.756041438,0,0
2.771266813,0,1
2.771341187,1,0
2.771903250,0,0
2.787274813,0,1
2.787349250,1,0
2.787911313,0,0
2.803437875,0,1
2.803512313,1,0
2.804074625,0,0
2.819230125,0,1
2.819304563,1,0
2.819866688,0,0
2.835368313,0,1
2.835442750,1,0
2.836004750,0,0
2.851272375,0,1
2.851346813,1,0
2.851908813,0,0
2.867289000,0,1
2.867363438,1,0
2.867925563,0,0
2.883218938,0,1
2.883293375,1,0
2.883855437,0,0
2.899365750,0,1
2.899440188,1,0
2.900002063,0,0
2.915365250,0,1
2.915439625,1,0
2.916001563,0,0
2.931225750,0,1
2.931300188,1,0
2.931862250,0,0
2.947381250,0,1
2.947455688,1,0
2.948017750,0,0
2.963476125,0,1
2.963550563,1,0
2.964112563,0,0
2.979623063,0,1
2.979697500,1,0
2.980259438,0,0
2.995492313,0,1
2.995566750,1,0
2.996128750,0,0
3.011370000,0,1
3.011444375,1,0
3.012006438,0,0
3.027456125,0,1
3.027530562,1,0
3.028092500,0,0
3.043559813,0,1
3.043634250,1,0
3.044196188,0,0
3.059359500,0,1
3.059433938,1,0
3.059996000,0,0
3.075332813,0,1
3.075407188,1,0
3.075969313,0,0
3.091410188,0,1
3.091484625,1,0
3.092046813,0,0
3.107296813,0,1
3.107371250,1,0
3.107933250,0,0
3.123469813,0,1
3.123544188,1,1
3.123544250,1,0
3.124106313,0,0
3.139304188,0,1
3.139378625,1,0
3.139940875,0,0
3.155286312,0,1
3.155360750,1,0
3.155923000,0,0
3.171268188,0,1
3.171342563,1,0
3.171904500,0,0
3.187640875,0,1
3.187715250,1,0
3.188277500,0,0
3.203344937,0,1
3.203419375,1,0
3.203981313,0,0
3.219457375,0,1
3.219531875,1,0
3.220094062,0,0
3.235257000,0,1
3.235331438,1,0
3.235893563,0,0
3.251256313,0,1
3.251330750,1,0
3.251892938,0,0
3.267238250,0,1
3.267312688,1,0
3.267874625,0,0
3.283663000,0,1
3.283737438,1,0
3.284299562,0,0
3.299271688,0,1
3.299346063,1,0
3.299908063,0,0
3.315401375,0,1
3.315475813,1,0
3.316038188,0,0
3.331331250,0,1
3.331405688,1,0
3.331967938,0,0
3.347279688,0,1
3.347354125,1,0
3.347916188,0,0
3.363235750,0,1
3.363310188,1,0
3.363872250,0,0
3.379304438,0,1
3.379378875,1,0
3.379940938,0,0
3.395398125,0,1
3.395472563,1,0
3.396034563,0,0
3.411225125,0,1
3.411299563,1,0
3.411861625,0,0
3.427285188,0,1
3.427359625,1,0
3.427921438,0,0
3.443543750,0,1
3.443618188,1,0
3.444180250,0,0
3.459370688,0,1
3.459445125,1,0
3.460007125,0,0
3.475222500,0,1
3.475296938,1,0
3.475859000,0,0
3.491352125,0,1
3.491426563,1,0
3.491988563,0,0
3.507238562,0,1
3.507313000,1,0
3.507874875,0,0
3.523523250,0,1
3.523597688,1,0
3.524159688,0,0
3.539341500,0,1
3.539415938,1,0
3.539977938,0,0
3.555366938,0,1
3.555441375,1,0
3.556003500,0,0
3.571244875,0,1
3.571319313,1,0
3.571881250,0,0
3.587443750,0,1
3.587518188,1,0
3.588080188,0,0
3.603295625,0,1
3.603370125,1,0
3.603932125,0,0
3.619242813,0,1
3.619317250,1,0
3.619879125,0,0
3.635224813,0,1
3.635299250,1,0
3.635861188,0,0
3.651380563,0,1
3.651455000,1,0
3.652017063,0,0
3.667405875,0,1
3.667480313,1,0
3.668042375,0,0
3.683413875,0,1
3.683488313,1,0
3.684050375,0,0
3.699465375,0,1
3.699539813,1,0
3.700101875,0,0
3.715291063,0,1
3.715365563,1,0
3.715927563,0,0
3.731273125,0,1
3.731347563,1,0
3.731909563,0,0
3.747333188,0,1
3.747407625,1,0
3.747969625,0,0
3.763532313,0,1
3.763606750,1,0
3.764168938,0,0
3.779236438,0,1
3.779310813,1,0
3.779873063,0,0
3.795461563,0,1
3.795536000,1,0
3.796098063,0,0
3.811374000,0,1
3.811448438,1,0
3.812010438,0,0
3.827373438,0,1
3.827447875,1,0
3.828009875,0,0
3.843242563,0,1
3.843317000,1,0
3.843879062,0,0
3.859328750,0,1
3.859403188,1,0
3.859965125,0,0
3.875362813,0,1
3.875437250,1,0
3.875999250,0,0
3.891379625,0,1
3.891454063,1,0
3.892016063,0,0
3.907717500,0,1
3.907791937,1,0
3.908353938,0,0
3.923248000,0,1
3.923322438,1,0
3.923884563,0,0
3.939238688,0,1
3.939313125,1,0
3.939875188,0,0
3.955437750,0,1
3.955512188,1,0
3.956074250,0,0
3.971280875,0,1
3.971355313,1,0
3.971917313,0,0
3.987358375,0,1
3.987432813,1,0
3.987994750,0,0
4.003220063,0,1
4.003294500,1,0
4.003856688,0,0
4.019522125,0,1
4.019596563,1,0
4.020158750,0,0
4.035373813,0,1
4.035448250,1,0
4.036010313,0,0
4.051287688,0,1
4.051362125,1,0
4.051924313,0,0
4.067356500,0,1
4.067430875,1,0
4.067992875,0,0
4.083242875,0,1
4.083317313,1,0
4.083879313,0,0
4.099320375,0,1
4.099394813,1,0
4.099956813,0,0
4.115337188,0,1
4.115411625,1,0
4.115973750,0,0
4.131440687,0,1
4.131515125,1,0
4.132077063,0,0
4.147275063,0,1
4.147349500,1,0
4.147911563,0,0
4.163265750,0,1
4.163340188,1,0
4.163902250,0,0
4.179325875,0,1
4.179400250,1,0
4.179962375,0,0
4.195264438,0,1
4.195338812,1,0
4.195900875,0,0
4.211255125,0,1
4.211329500,1,0
4.211891625,0,0
4.227436875,0,1
4.227511312,1,0
4.228073563,0,0
4.243323375,0,1
4.243397813,1,0
4.243960062,0,0
4.259270750,0,1
4.259345125,1,0
4.259907187,0,0
4.275400250,0,1
4.275474687,1,0
4.276036625,0,0
4.291278000,0,1
4.291352438,1,0
4.291914438,0,0
4.307381500,0,1
4.307455938,1,0
4.308018125,0,0
4.323658688,0,1
4.323733125,1,0
4.324295250,0,0
4.339354187,0,1
4.339428625,1,0
4.339990688,0,0
4.355379688,0,1
4.355454062,1,0
4.356016188,0,0
4.371274750,0,1
4.371349188,1,0
4.371911063,0,0
4.387430437,0,1
4.387504875,1,0
4.388066938,0,0
4.403360250,0,1
4.403434687,1,0
4.403996500,0,0
4.419229563,0,1
4.419304000,1,0
4.419866063,0,0
4.435315563,0,1
4.435390000,1,0
4.435952063,0,0
4.451393125,0,1
4.451467563,1,0
4.452029500,0,0
4.467262250,0,1
4.467336688,1,0
4.467898750,0,0
4.483339875,0,1
4.483414312,1,0
4.483976375,0,0
4.499512687,0,1
4.499587125,1,0
4.500149313,0,0
4.515373188,0,1
4.515447625,1,0
4.516009500,0,0
4.531364062,0,1
4.531438500,1,0
4.532000688,0,0
4.547424000,0,1
4.547498438,1,0
4.548060438,0,0
4.563232313,0,1
4.563306750,1,0
4.563868875,0,0
4.579353375,0,1
4.579427813,1,0
4.579989938,0,0
4.595482875,0,1
4.595557313,1,0
4.596119500,0,0
4.611378063,0,1
4.611452500,1,0
4.612014625,0,0
4.627368813,0,1
4.627443250,1,0
4.628005375,0,0
4.643619812,0,1
4.643694250,1,0
4.644256375,0,0
4.659532438,0,1
4.659606875,1,0
4.660168875,0,0
4.675229188,0,1
4.675303625,1,0
4.675865688,0,0
4.691298063,0,1
4.691372500,1,0
4.691934500,0,0
4.707565250,0,1
4.707639625,1,0
4.708201687,0,0
4.723564500,0,1
4.723638938,1,0
4.724200938,0,0
4.739278875,0,1
4.739353313,1,0
4.739915563,0,0
4.755417062,0,1
4.755491437,1,0
4.756053562,0,0
4.771355625,0,1
4.771430063,1,0
4.771992188,0,0
4.787250813,0,1
4.787325188,1,0
4.787887375,0,0
4.803691500,0,1
4.803765938,1,0
4.804327875,0,0
4.819336313,0,1
4.819410688,1,0
4.819972813,0,0
4.835379063,0,1
4.835453500,1,0
4.836015563,0,0
4.851413313,0,1
4.851487750,1,0
4.852049813,0,0
4.867490625,0,1
4.867565000,1,0
4.868127063,0,0
4.884244063,0,1
4.884318500,1,0
4.884880500,0,0
4.899281063,0,1
4.899355500,1,0
4.899917437,0,0
4.915367188,0,1
4.915441625,1,0
4.916003688,0,0
4.931279688,0,1
4.931354125,1,0
4.931916188,0,0
4.947383250,0,1
4.947457688,1,0
4.948019750,0,0
4.963373938,0,1
4.963448375,1,0
4.964010312,0,0
4.979529750,0,1
4.979604187,1,0
4.980166375,0,0
4.995398687,0,1
4.995473125,1,0
4.996035188,0,0
5.011415438,0,1
5.011489875,1,0
5.012052000,0,0
5.027267313,0,1
5.027341750,1,0
5.027903813,0,0
5.043396750,0,1
5.043471188,1,0
5.044033250,0,0
5.059491625,0,1
5.059566063,1,0
5.060128125,0,0
5.075803562,0,1
5.075878000,1,0
5.076440063,0,0
5.091403500,0,1
5.091477938,1,0
5.092039875,0,0
5.107385687,0,1
5.107460125,1,0
5.108022187,0,0
5.123532500,0,1
5.123606938,1,0
5.124169063,0,0
5.139254000,0,1
5.139328438,1,0
5.139890438,0,0
5.155296812,0,1
5.155371250,1,0
5.155933313,0,0
5.171443813,0,1
5.171518250,1,0
5.172080125,0,0
5.187295563,0,1
5.187370000,1,0
5.187932125,0,0
5.203268937,0,1
5.203343313,1,0
5.203905438,0,0
5.219450438,0,1
5.219524875,1,0
5.220087000,0,0
5.235545312,0,1
5.235619750,1,0
5.236181812,0,0
5.251258312,0,1
5.251332750,1,0
5.251894688,0,0
5.267283813,0,1
5.267358250,1,0
5.267920563,0,0
5.283630250,0,1
5.283704625,1,0
5.284266750,0,0
5.299266313,0,1
5.299340750,1,0
5.299902750,0,0
5.315385875,0,1
5.315460250,1,1
5.315460312,1,0
5.316022250,0,0
5.331420063,0,1
5.331494500,1,0
5.332056563,0,0
5.347342563,0,1
5.347417000,1,0
5.347978938,0,0
5.363289875,0,1
5.363364313,1,0
5.363926500,0,0
5.379323938,0,1
5.379398375,1,0
5.379960438,0,0
5.395279938,0,1
5.395354313,1,0
5.395916563,0,0
5.411279188,0,1
5.411353625,1,0
5.411915750,0,0
5.427296000,0,1
5.427370438,1,0
5.427932563,0,0
5.443425375,0,1
5.443499812,1,0
5.444061875,0,0
5.459424813,0,1
5.459499250,1,0
5.460061188,0,0
5.475302625,0,1
5.475377063,1,0
5.475939125,0,0
5.491310750,0,1
5.491385188,1,0
5.491947250,0,0
5.507275313,0,1
5.507349750,1,0
5.507911688,0,0
5.523361563,0,1
5.523435938,1,0
5.523998063,0,0
5.539317438,0,1
5.539391875,1,0
5.539953938,0,0
5.555282063,0,1
5.555356500,1,0
5.555918500,0,0
5.571272813,0,1
5.571347250,1,0
5.571909250,0,0
5.587419688,0,1
5.587494125,1,0
5.588056313,0,0
5.603349750,0,1
5.603424188,1,0
5.603986125,0,0
5.619279688,0,1
5.619354125,1,0
5.619916250,0,0
5.635391813,0,1
5.635466250,1,0
5.636028500,0,0
5.651530000,0,1
5.651604438,1,0
5.652166500,0,0
5.667433875,0,1
5.667508250,1,0
5.668070125,0,0
5.683407313,0,1
5.683481750,1,0
5.684043938,0,0
5.699484688,0,1
5.699559125,1,0
5.700121188,0,0
5.715345125,0,1
5.715419563,1,0
5.715981500,0,0
5.731292438,0,1
5.731366812,1,0
5.731928750,0,0
5.747448063,0,1
5.747522500,1,0
5.748084562,0,0
5.763282563,0,1
5.763356937,1,0
5.763919125,0,0
5.779325375,0,1
5.779399813,1,0
5.779961938,0,0
5.795454875,0,1
5.795529313,1,0
5.796091500,0,0
5.811315375,0,1
5.811389750,1,0
5.811951750,0,0
5.827271250,0,1
5.827345750,1,0
5.827907750,0,0
5.843383438,0,1
5.843457875,1,0
5.844019813,0,0
5.859322000,0,1
5.859396438,1,0
5.859958500,0,0
5.875278000,0,1
5.875352375,1,0
5.875914375,0,0
5.891650625,0,1
5.891725000,1,0
5.892287125,0,0
5.907337500,0,1
5.907411938,1,0
5.907974063,0,0
5.923310813,0,1
5.923385250,1,0
5.923947250,0,0
5.939310125,0,1
5.939384563,1,0
5.939946688,0,0
5.955344313,0,1
5.955418750,1,0
5.955980688,0,0
5.971543313,0,1
5.971617750,1,0
5.972179937,0,0
5.987560063,0,1
5.987634500,1,0
5.988196438,0,0
6.003326250,0,1
6.003400625,1,0
6.003962625,0,0
6.019463375,0,1
6.019537750,1,0
6.020099938,0,0
6.035281500,0,1
6.035355938,1,0
6.035917875,0,0
6.051289688,0,1
6.051364125,1,0
6.051926188,0,0
6.067427750,0,1
6.067502188,1,0
6.068064312,0,0
6.083781813,0,1
6.083856250,1,0
6.084418313,0,0
6.099624937,0,1
6.099699375,1,0
6.100261375,0,0
6.115287000,0,1
6.115361438,1,0
6.115923375,0,0
6.131477375,0,1
6.131551813,1,0
6.132113875,0,0
6.147407313,0,1
6.147481750,1,0
6.148043812,0,0
6.163250313,0,1
6.163324750,1,0
6.163886938,0,0
6.179466875,0,1
6.179541313,1,0
6.180103375,0,0
6.195535625,0,1
6.195610063,1,0
6.196172125,0,0
6.211526313,0,1
6.211600750,1,0
6.212162812,0,0
6.227586438,0,1
6.227660875,1,0
